T29F4 059:919 SEGGER J-Link V6.32i Log File (0000ms, 2437ms total)
T29F4 059:919 DLL Compiled: Jul 24 2018 15:19:55 (0000ms, 2437ms total)
T29F4 059:919 Logging started @ 2019-02-25 09:53 (0000ms, 2437ms total)
T29F4 059:919 JLINK_SetWarnOutHandler(...) (0000ms, 2437ms total)
T29F4 059:919 JLINK_OpenEx(...)
Firmware: J-Link ARM V8 compiled Dec  1 2015 11:42:48
Hardware: V8.00
S/N: 20080643
Feature(s): RDI,FlashDL,FlashBP,JFlash,GDBFull
TELNET listener socket opened on port 19021WEBSRV 
Starting webserver (0017ms, 2454ms total)
T29F4 059:919 WEBSRV Webserver running on local port 19080 (0017ms, 2454ms total)
T29F4 059:919   returns O.K. (0017ms, 2454ms total)
T29F4 059:936 JLINK_GetEmuCaps()  returns 0xB9FF7BBF (0000ms, 2454ms total)
T29F4 059:938 JLINK_TIF_GetAvailable(...) (0000ms, 2454ms total)
T29F4 059:938 JLINK_SetErrorOutHandler(...) (0000ms, 2454ms total)
T29F4 059:938 JLINK_ExecCommand("ProjectFile = "D:\code\coding\can_test\MDK-ARM\JLinkSettings.ini"", ...).   returns 0x00 (0001ms, 2455ms total)
T29F4 059:943 JLINK_ExecCommand("Device = STM32F407ZGTx", ...). Device "STM32F407ZG" selected.  returns 0x00 (0008ms, 2463ms total)
T29F4 059:951 JLINK_ExecCommand("DisableConnectionTimeout", ...).   returns 0x01 (0000ms, 2463ms total)
T29F4 059:951 JLINK_GetHardwareVersion()  returns 0x13880 (0000ms, 2463ms total)
T29F4 059:952 JLINK_GetDLLVersion()  returns 63209 (0000ms, 2463ms total)
T29F4 059:952 JLINK_GetFirmwareString(...) (0000ms, 2463ms total)
T29F4 059:964 JLINK_GetDLLVersion()  returns 63209 (0000ms, 2463ms total)
T29F4 059:964 JLINK_GetCompileDateTime() (0000ms, 2463ms total)
T29F4 059:966 JLINK_GetFirmwareString(...) (0000ms, 2463ms total)
T29F4 059:969 JLINK_GetHardwareVersion()  returns 0x13880 (0000ms, 2463ms total)
T29F4 059:979 JLINK_TIF_Select(JLINKARM_TIF_JTAG)  returns 0x00 (0003ms, 2466ms total)
T29F4 059:982 JLINK_SetSpeed(5000) (0001ms, 2467ms total)
T29F4 059:983 JLINK_GetIdData(...) >0x2F8 JTAG>TotalIRLen = 9, IRPrint = 0x0011 >0x30 JTAG> >0x50 JTAG>JTAG chain detection found 2 devices: #0 Id: 0x4BA00477, IRLen: 04, CoreSight JTAG-DP #1 Id: 0x06413041, IRLen: 05, STM32 Boundary Scan >0x40 JTAG> >0x40 JTAG> >0x40 JTAG> >0x30 JTAG> >0x40 JTAG> >0x40 JTAG> >0x40 JTAG> >0x40 JTAG> >0x40 JTAG> >0x40 JTAG> >0x40 JTAG> >0x40 JTAG> >0x40 JTAG> >0x40 JTAG> >0x40 JTAG> >0x40 JTAG> >0x40 JTAG> >0x40 JTAG> >0x40 JTAG> >0x40 JTAG> >0x40 JTAG> >0x40 JTAG>
 >0x40 JTAG> >0x40 JTAG> >0x2F8 JTAG>TotalIRLen = 9, IRPrint = 0x0011 >0x30 JTAG> >0x50 JTAG>JTAG chain detection found 2 devices: #0 Id: 0x4BA00477, IRLen: 04, CoreSight JTAG-DP #1 Id: 0x06413041, IRLen: 05, STM32 Boundary ScanScanning AP map to find all available APs >0x80 JTAG> >0x50 JTAG> >0x40 JTAG> >0x40 JTAG> >0x50 JTAG> >0x40 JTAG>AP[1]: Stopped AP scan as end of AP map has been reachedAP[0]: AHB-AP (IDR: 0x24770011)Iterating through AP map to find AHB-AP to use >0x80 JTAG> >0x50 JTAG>
 >0x50 JTAG> >0x80 JTAG> >0x40 JTAG> >0x30 JTAG> >0x40 JTAG> >0x40 JTAG>AP[0]: Core foundAP[0]: AHB-AP ROM base: 0xE00FF000 >0x40 JTAG> >0x40 JTAG> >0x30 JTAG> >0x40 JTAG> >0x40 JTAG>CPUID register: 0x410FC241. Implementer code: 0x41 (ARM)Found Cortex-M4 r0p1, Little endian. -- Max. mem block: 0x00002568 >0x1F0 JTAG> >0x1F0 JTAG> >0x1F0 JTAG>FPUnit: 6 code (BP) slots and 2 literal slots >0x1F0 JTAG> >0x1F0 JTAG> >0x1F0 JTAG> >0x1F0 JTAG> >0x1F0 JTAG> >0x1F0 JTAG> >0x1F0 JTAG> >0x1F0 JTAG>
CoreSight components:ROMTbl[0] @ E00FF000 >0x2A8 JTAG> >0x2A8 JTAG> >0x2A8 JTAG>ROMTbl[0][0]: E000E000, CID: B105E00D, PID: 000BB00C SCS-M7 >0x2A8 JTAG> >0x2A8 JTAG>ROMTbl[0][1]: E0001000, CID: B105E00D, PID: 003BB002 DWT >0x2A8 JTAG> >0x2A8 JTAG>ROMTbl[0][2]: E0002000, CID: B105E00D, PID: 002BB003 FPB >0x2A8 JTAG> >0x2A8 JTAG>ROMTbl[0][3]: E0000000, CID: B105E00D, PID: 003BB001 ITM >0x2A8 JTAG> >0x2A8 JTAG> >0x2A8 JTAG>ROMTbl[0][4]: E0040000, CID: B105900D, PID: 000BB9A1 TPIU >0x2A8 JTAG> >0x2A8 JTAG>
ROMTbl[0][5]: E0041000, CID: B105900D, PID: 000BB925 ETM ScanLen=9 NumDevices=2 aId[0]=0x4BA00477 aIrRead[0]=0 aScanLen[0]=0 aScanRead[0]=0 (0145ms, 2612ms total)
T29F4 060:128 JLINK_JTAG_GetDeviceID(DeviceIndex = 0)  returns 0x4BA00477 (0000ms, 2612ms total)
T29F4 060:128 JLINK_JTAG_GetDeviceInfo(DeviceIndex = 0)  returns 0x00 (0000ms, 2612ms total)
T29F4 060:129 JLINK_JTAG_GetDeviceID(DeviceIndex = 1)  returns 0x6413041 (0000ms, 2612ms total)
T29F4 060:129 JLINK_JTAG_GetDeviceInfo(DeviceIndex = 1)  returns 0x00 (0000ms, 2612ms total)
T29F4 060:129 JLINK_GetDLLVersion()  returns 63209 (0000ms, 2612ms total)
T29F4 060:129 JLINK_CORE_GetFound()  returns 0xE0000FF (0000ms, 2612ms total)
T29F4 060:129 JLINK_GetDebugInfo(0x100 = JLINKARM_ROM_TABLE_ADDR_INDEX) -- Value=0xE00FF000  returns 0x00 (0000ms, 2612ms total)
T29F4 060:132 JLINK_GetDebugInfo(0x100 = JLINKARM_ROM_TABLE_ADDR_INDEX) -- Value=0xE00FF000  returns 0x00 (0000ms, 2612ms total)
T29F4 060:132 JLINK_GetDebugInfo(0x101 = JLINKARM_DEBUG_INFO_ETM_ADDR_INDEX) -- Value=0xE0041000  returns 0x00 (0000ms, 2612ms total)
T29F4 060:132 JLINK_ReadMemEx(0xE0041FD0, 0x0020 Bytes, ..., Flags = 0x02000004) >0x398 JTAG> - Data: 04 00 00 00 00 00 00 00 00 00 00 00 00 00 00 00 ...  returns 0x20 (0001ms, 2613ms total)
T29F4 060:133 JLINK_GetDebugInfo(0x102 = JLINKARM_DEBUG_INFO_MTB_ADDR_INDEX) -- Value=0x00000000  returns 0x00 (0000ms, 2613ms total)
T29F4 060:133 JLINK_GetDebugInfo(0x103 = JLINKARM_DEBUG_INFO_TPIU_ADDR_INDEX) -- Value=0xE0040000  returns 0x00 (0000ms, 2613ms total)
T29F4 060:133 JLINK_GetDebugInfo(0x104 = JLINKARM_DEBUG_INFO_ITM_ADDR_INDEX) -- Value=0xE0000000  returns 0x00 (0000ms, 2613ms total)
T29F4 060:133 JLINK_GetDebugInfo(0x105 = JLINKARM_DEBUG_INFO_DWT_ADDR_INDEX) -- Value=0xE0001000  returns 0x00 (0000ms, 2613ms total)
T29F4 060:133 JLINK_GetDebugInfo(0x106 = JLINKARM_DEBUG_INFO_FPB_ADDR_INDEX) -- Value=0xE0002000  returns 0x00 (0000ms, 2613ms total)
T29F4 060:133 JLINK_GetDebugInfo(0x107 = JLINKARM_DEBUG_INFO_NVIC_ADDR_INDEX) -- Value=0xE000E000  returns 0x00 (0000ms, 2613ms total)
T29F4 060:133 JLINK_GetDebugInfo(0x10C = JLINKARM_DEBUG_INFO_DBG_ADDR_INDEX) -- Value=0xE000EDF0  returns 0x00 (0000ms, 2613ms total)
T29F4 060:133 JLINK_GetDebugInfo(0x01 = Unknown) -- Value=0x00000001  returns 0x00 (0000ms, 2613ms total)
T29F4 060:133 JLINK_ReadMemU32(0xE000ED00, 0x0001 Items, ...) >0x1F0 JTAG> - Data: 41 C2 0F 41  returns 0x01 (0001ms, 2614ms total)
T29F4 060:134 JLINK_GetDebugInfo(0x10F = JLINKARM_DEBUG_INFO_HAS_CORTEX_M_SECURITY_EXT_INDEX) -- Value=0x00000000  returns 0x00 (0000ms, 2614ms total)
T29F4 060:134 JLINK_SetResetType(JLINKARM_CM3_RESET_TYPE_NORMAL)  returns JLINKARM_CM3_RESET_TYPE_NORMAL (0000ms, 2614ms total)
T29F4 060:134 JLINK_Reset() -- CPU is running >0x1F0 JTAG> -- CPU is running >0x1F0 JTAG>Reset: Halt core after reset via DEMCR.VC_CORERESET.Reset: Reset device via AIRCR.SYSRESETREQ. -- CPU is running >0x230 JTAG> >0x1F0 JTAG> >0x1F0 JTAG> -- CPU is running >0x1F0 JTAG> -- CPU is running >0x1F0 JTAG> >0x1F0 JTAG> >0x198 JTAG> >0x17A8 JTAG> >0x1F0 JTAG> >0x1F0 JTAG> >0x1F0 JTAG> >0x1F0 JTAG> >0x1F0 JTAG> >0x1F0 JTAG> >0x1F0 JTAG> >0x1F0 JTAG> (0097ms, 2711ms total)
T29F4 060:231 JLINK_Halt()  returns 0x00 (0000ms, 2711ms total)
T29F4 060:231 JLINK_ReadMemU32(0xE000EDF0, 0x0001 Items, ...) >0x1F0 JTAG> - Data: 03 00 03 00  returns 0x01 (0002ms, 2713ms total)
T29F4 060:233 JLINK_WriteU32(0xE000EDF0, 0xA05F0003) >0x1F0 JTAG>  returns 0x00 (0002ms, 2715ms total)
T29F4 060:235 JLINK_WriteU32(0xE000EDFC, 0x01000000) >0x1F0 JTAG>  returns 0x00 (0002ms, 2717ms total)
T29F4 060:256 JLINK_GetHWStatus(...)  returns 0x00 (0000ms, 2717ms total)
T29F4 060:263 JLINK_GetNumBPUnits(Type = 0xFFFFFF00)  returns 0x06 (0001ms, 2718ms total)
T29F4 060:264 JLINK_GetNumBPUnits(Type = 0xF0)  returns 0x2000 (0000ms, 2718ms total)
T29F4 060:264 JLINK_GetNumWPUnits()  returns 0x04 (0000ms, 2718ms total)
T29F4 060:270 JLINK_GetSpeed()  returns 0x12C0 (0000ms, 2718ms total)
T29F4 060:275 JLINK_ReadMemU32(0xE000E004, 0x0001 Items, ...) >0x1F0 JTAG> - Data: 02 00 00 00  returns 0x01 (0001ms, 2719ms total)
T29F4 060:276 JLINK_ReadMemU32(0xE000E004, 0x0001 Items, ...) >0x1F0 JTAG> - Data: 02 00 00 00  returns 0x01 (0002ms, 2721ms total)
T29F4 060:278 JLINK_WriteMemEx(0xE0001000, 0x001C Bytes, ..., Flags = 0x02000004) - Data: 01 00 00 00 00 00 00 00 00 00 00 00 00 00 00 00 ... >0x310 JTAG>  returns 0x1C (0002ms, 2723ms total)
T29F4 060:280 JLINK_Halt()  returns 0x00 (0000ms, 2723ms total)
T29F4 060:280 JLINK_IsHalted()  returns TRUE (0000ms, 2723ms total)
T29F4 060:282 JLINK_WriteMem(0x20000000, 0x0180 Bytes, ...) - Data: 00 BE 0A E0 0D 78 2D 06 68 40 08 24 40 00 00 D3 ... >0x13C0 JTAG>  returns 0x180 (0004ms, 2727ms total)
T29F4 060:286 JLINK_WriteReg(R0, 0x08000000)  returns 0x00 (0001ms, 2728ms total)
T29F4 060:287 JLINK_WriteReg(R1, 0x0A037A00)  returns 0x00 (0000ms, 2728ms total)
T29F4 060:287 JLINK_WriteReg(R2, 0x00000001)  returns 0x00 (0000ms, 2728ms total)
T29F4 060:287 JLINK_WriteReg(R3, 0x00000000)  returns 0x00 (0000ms, 2728ms total)
T29F4 060:287 JLINK_WriteReg(R4, 0x00000000)  returns 0x00 (0000ms, 2728ms total)
T29F4 060:287 JLINK_WriteReg(R5, 0x00000000)  returns 0x00 (0000ms, 2728ms total)
T29F4 060:287 JLINK_WriteReg(R6, 0x00000000)  returns 0x00 (0000ms, 2728ms total)
T29F4 060:287 JLINK_WriteReg(R7, 0x00000000)  returns 0x00 (0000ms, 2728ms total)
T29F4 060:287 JLINK_WriteReg(R8, 0x00000000)  returns 0x00 (0000ms, 2728ms total)
T29F4 060:287 JLINK_WriteReg(R9, 0x2000017C)  returns 0x00 (0000ms, 2728ms total)
T29F4 060:287 JLINK_WriteReg(R10, 0x00000000)  returns 0x00 (0000ms, 2728ms total)
T29F4 060:287 JLINK_WriteReg(R11, 0x00000000)  returns 0x00 (0000ms, 2728ms total)
T29F4 060:287 JLINK_WriteReg(R12, 0x00000000)  returns 0x00 (0000ms, 2728ms total)
T29F4 060:287 JLINK_WriteReg(R13 (SP), 0x20001000)  returns 0x00 (0000ms, 2728ms total)
T29F4 060:287 JLINK_WriteReg(R14, 0x20000001)  returns 0x00 (0000ms, 2728ms total)
T29F4 060:287 JLINK_WriteReg(R15 (PC), 0x20000054)  returns 0x00 (0000ms, 2728ms total)
T29F4 060:287 JLINK_WriteReg(XPSR, 0x01000000)  returns 0x00 (0000ms, 2728ms total)
T29F4 060:287 JLINK_WriteReg(MSP, 0x20001000)  returns 0x00 (0000ms, 2728ms total)
T29F4 060:287 JLINK_WriteReg(PSP, 0x20001000)  returns 0x00 (0000ms, 2728ms total)
T29F4 060:287 JLINK_WriteReg(CFBP, 0x00000000)  returns 0x00 (0000ms, 2728ms total)
T29F4 060:287 JLINK_SetBPEx(Addr = 0x20000000, Type = 0xFFFFFFF2) >0x1F0 JTAG>  returns 0x00000001 (0001ms, 2729ms total)
T29F4 060:288 JLINK_Go() >0x1F0 JTAG> >0x1F0 JTAG> >0x1F0 JTAG> >0x1F0 JTAG> >0x1F0 JTAG> >0x1F0 JTAG> >0x1F0 JTAG> >0x1F0 JTAG> >0x310 JTAG> >0x218 JTAG> >0x218 JTAG> >0x218 JTAG> >0x218 JTAG> >0x218 JTAG> >0x218 JTAG> >0x218 JTAG> >0x240 JTAG> >0x240 JTAG> (0027ms, 2756ms total)
T29F4 060:315 JLINK_IsHalted() >0x198 JTAG> >0x17A8 JTAG> >0x1F0 JTAG>  returns TRUE (0007ms, 2763ms total)
T29F4 060:322 JLINK_ReadReg(R15 (PC))  returns 0x20000000 (0000ms, 2756ms total)
T29F4 060:322 JLINK_ClrBPEx(BPHandle = 0x00000001)  returns 0x00 (0000ms, 2756ms total)
T29F4 060:322 JLINK_ReadReg(R0)  returns 0x00000000 (0000ms, 2756ms total)
T29F4 060:322 JLINK_WriteReg(R0, 0x08000000)  returns 0x00 (0000ms, 2756ms total)
T29F4 060:322 JLINK_WriteReg(R1, 0x00004000)  returns 0x00 (0000ms, 2756ms total)
T29F4 060:322 JLINK_WriteReg(R2, 0x000000FF)  returns 0x00 (0000ms, 2756ms total)
T29F4 060:322 JLINK_WriteReg(R3, 0x00000000)  returns 0x00 (0000ms, 2756ms total)
T29F4 060:322 JLINK_WriteReg(R4, 0x00000000)  returns 0x00 (0000ms, 2756ms total)
T29F4 060:322 JLINK_WriteReg(R5, 0x00000000)  returns 0x00 (0000ms, 2756ms total)
T29F4 060:322 JLINK_WriteReg(R6, 0x00000000)  returns 0x00 (0000ms, 2756ms total)
T29F4 060:322 JLINK_WriteReg(R7, 0x00000000)  returns 0x00 (0000ms, 2756ms total)
T29F4 060:322 JLINK_WriteReg(R8, 0x00000000)  returns 0x00 (0000ms, 2756ms total)
T29F4 060:322 JLINK_WriteReg(R9, 0x2000017C)  returns 0x00 (0000ms, 2756ms total)
T29F4 060:322 JLINK_WriteReg(R10, 0x00000000)  returns 0x00 (0000ms, 2756ms total)
T29F4 060:322 JLINK_WriteReg(R11, 0x00000000)  returns 0x00 (0000ms, 2756ms total)
T29F4 060:322 JLINK_WriteReg(R12, 0x00000000)  returns 0x00 (0000ms, 2756ms total)
T29F4 060:323 JLINK_WriteReg(R13 (SP), 0x20001000)  returns 0x00 (0000ms, 2757ms total)
T29F4 060:323 JLINK_WriteReg(R14, 0x20000001)  returns 0x00 (0000ms, 2757ms total)
T29F4 060:323 JLINK_WriteReg(R15 (PC), 0x20000020)  returns 0x00 (0000ms, 2757ms total)
T29F4 060:323 JLINK_WriteReg(XPSR, 0x01000000)  returns 0x00 (0000ms, 2757ms total)
T29F4 060:323 JLINK_WriteReg(MSP, 0x20001000)  returns 0x00 (0000ms, 2757ms total)
T29F4 060:323 JLINK_WriteReg(PSP, 0x20001000)  returns 0x00 (0000ms, 2757ms total)
T29F4 060:323 JLINK_WriteReg(CFBP, 0x00000000)  returns 0x00 (0000ms, 2757ms total)
T29F4 060:323 JLINK_SetBPEx(Addr = 0x20000000, Type = 0xFFFFFFF2)  returns 0x00000002 (0000ms, 2757ms total)
T29F4 060:323 JLINK_Go() >0x1F0 JTAG> >0x310 JTAG> >0x218 JTAG> >0x218 JTAG> >0x218 JTAG> >0x218 JTAG> >0x240 JTAG> >0x240 JTAG> (0010ms, 2767ms total)
T29F4 060:333 JLINK_IsHalted() >0x198 JTAG> >0x17A8 JTAG> >0x1F0 JTAG>  returns TRUE (0006ms, 2773ms total)
T29F4 060:339 JLINK_ReadReg(R15 (PC))  returns 0x20000000 (0000ms, 2767ms total)
T29F4 060:339 JLINK_ClrBPEx(BPHandle = 0x00000002)  returns 0x00 (0000ms, 2767ms total)
T29F4 060:339 JLINK_ReadReg(R0)  returns 0x00000001 (0000ms, 2767ms total)
T29F4 060:339 JLINK_WriteReg(R0, 0x08000000)  returns 0x00 (0000ms, 2767ms total)
T29F4 060:339 JLINK_WriteReg(R1, 0x00004000)  returns 0x00 (0000ms, 2767ms total)
T29F4 060:339 JLINK_WriteReg(R2, 0x000000FF)  returns 0x00 (0000ms, 2767ms total)
T29F4 060:339 JLINK_WriteReg(R3, 0x00000000)  returns 0x00 (0000ms, 2767ms total)
T29F4 060:339 JLINK_WriteReg(R4, 0x00000000)  returns 0x00 (0000ms, 2767ms total)
T29F4 060:339 JLINK_WriteReg(R5, 0x00000000)  returns 0x00 (0000ms, 2767ms total)
T29F4 060:339 JLINK_WriteReg(R6, 0x00000000)  returns 0x00 (0000ms, 2767ms total)
T29F4 060:339 JLINK_WriteReg(R7, 0x00000000)  returns 0x00 (0000ms, 2767ms total)
T29F4 060:339 JLINK_WriteReg(R8, 0x00000000)  returns 0x00 (0000ms, 2767ms total)
T29F4 060:339 JLINK_WriteReg(R9, 0x2000017C)  returns 0x00 (0000ms, 2767ms total)
T29F4 060:339 JLINK_WriteReg(R10, 0x00000000)  returns 0x00 (0000ms, 2767ms total)
T29F4 060:339 JLINK_WriteReg(R11, 0x00000000)  returns 0x00 (0000ms, 2767ms total)
T29F4 060:339 JLINK_WriteReg(R12, 0x00000000)  returns 0x00 (0000ms, 2767ms total)
T29F4 060:339 JLINK_WriteReg(R13 (SP), 0x20001000)  returns 0x00 (0000ms, 2767ms total)
T29F4 060:339 JLINK_WriteReg(R14, 0x20000001)  returns 0x00 (0000ms, 2767ms total)
T29F4 060:339 JLINK_WriteReg(R15 (PC), 0x200000BC)  returns 0x00 (0000ms, 2767ms total)
T29F4 060:339 JLINK_WriteReg(XPSR, 0x01000000)  returns 0x00 (0000ms, 2767ms total)
T29F4 060:339 JLINK_WriteReg(MSP, 0x20001000)  returns 0x00 (0000ms, 2767ms total)
T29F4 060:339 JLINK_WriteReg(PSP, 0x20001000)  returns 0x00 (0000ms, 2767ms total)
T29F4 060:339 JLINK_WriteReg(CFBP, 0x00000000)  returns 0x00 (0000ms, 2767ms total)
T29F4 060:339 JLINK_SetBPEx(Addr = 0x20000000, Type = 0xFFFFFFF2)  returns 0x00000003 (0000ms, 2767ms total)
T29F4 060:339 JLINK_Go() >0x1F0 JTAG> >0x310 JTAG> >0x218 JTAG> >0x218 JTAG> >0x218 JTAG> >0x240 JTAG> >0x240 JTAG> (0009ms, 2776ms total)
T29F4 060:348 JLINK_IsHalted() >0x198 JTAG>  returns FALSE (0001ms, 2777ms total)
T29F4 060:399 JLINK_IsHalted() >0x198 JTAG>  returns FALSE (0000ms, 2776ms total)
T29F4 060:401 JLINK_IsHalted() >0x198 JTAG>  returns FALSE (0000ms, 2776ms total)
T29F4 060:403 JLINK_IsHalted() >0x198 JTAG>  returns FALSE (0001ms, 2777ms total)
T29F4 060:407 JLINK_IsHalted() >0x198 JTAG>  returns FALSE (0001ms, 2777ms total)
T29F4 060:410 JLINK_IsHalted() >0x198 JTAG>  returns FALSE (0001ms, 2777ms total)
T29F4 060:413 JLINK_IsHalted() >0x198 JTAG>  returns FALSE (0001ms, 2777ms total)
T29F4 060:416 JLINK_IsHalted() >0x198 JTAG>  returns FALSE (0001ms, 2777ms total)
T29F4 060:419 JLINK_IsHalted() >0x198 JTAG>  returns FALSE (0001ms, 2777ms total)
T29F4 060:422 JLINK_IsHalted() >0x198 JTAG>  returns FALSE (0001ms, 2777ms total)
T29F4 060:425 JLINK_IsHalted() >0x198 JTAG>  returns FALSE (0001ms, 2777ms total)
T29F4 060:428 JLINK_IsHalted() >0x198 JTAG>  returns FALSE (0001ms, 2777ms total)
T29F4 060:431 JLINK_IsHalted() >0x198 JTAG>  returns FALSE (0001ms, 2777ms total)
T29F4 060:434 JLINK_IsHalted() >0x198 JTAG>  returns FALSE (0001ms, 2777ms total)
T29F4 060:437 JLINK_IsHalted() >0x198 JTAG>  returns FALSE (0001ms, 2777ms total)
T29F4 060:440 JLINK_IsHalted() >0x198 JTAG>  returns FALSE (0001ms, 2777ms total)
T29F4 060:443 JLINK_IsHalted() >0x198 JTAG>  returns FALSE (0001ms, 2777ms total)
T29F4 060:446 JLINK_IsHalted() >0x198 JTAG>  returns FALSE (0000ms, 2776ms total)
T29F4 060:449 JLINK_IsHalted() >0x198 JTAG>  returns FALSE (0000ms, 2776ms total)
T29F4 060:452 JLINK_IsHalted() >0x198 JTAG>  returns FALSE (0000ms, 2776ms total)
T29F4 060:457 JLINK_IsHalted() >0x198 JTAG>  returns FALSE (0001ms, 2777ms total)
T29F4 060:461 JLINK_IsHalted() >0x198 JTAG>  returns FALSE (0000ms, 2776ms total)
T29F4 060:464 JLINK_IsHalted() >0x198 JTAG>  returns FALSE (0000ms, 2776ms total)
T29F4 060:467 JLINK_IsHalted() >0x198 JTAG>  returns FALSE (0000ms, 2776ms total)
T29F4 060:472 JLINK_IsHalted() >0x198 JTAG>  returns FALSE (0000ms, 2776ms total)
T29F4 060:475 JLINK_IsHalted() >0x198 JTAG>  returns FALSE (0000ms, 2776ms total)
T29F4 060:478 JLINK_IsHalted() >0x198 JTAG>  returns FALSE (0000ms, 2776ms total)
T29F4 060:481 JLINK_IsHalted() >0x198 JTAG>  returns FALSE (0000ms, 2776ms total)
T29F4 060:484 JLINK_IsHalted() >0x198 JTAG>  returns FALSE (0000ms, 2776ms total)
T29F4 060:486 JLINK_IsHalted() >0x198 JTAG>  returns FALSE (0001ms, 2777ms total)
T29F4 060:490 JLINK_IsHalted() >0x198 JTAG>  returns FALSE (0001ms, 2777ms total)
T29F4 060:493 JLINK_IsHalted() >0x198 JTAG>  returns FALSE (0001ms, 2777ms total)
T29F4 060:496 JLINK_IsHalted() >0x198 JTAG>  returns FALSE (0001ms, 2777ms total)
T29F4 060:499 JLINK_IsHalted() >0x198 JTAG>  returns FALSE (0001ms, 2777ms total)
T29F4 060:502 JLINK_IsHalted() >0x198 JTAG>  returns FALSE (0001ms, 2777ms total)
T29F4 060:505 JLINK_IsHalted() >0x198 JTAG>  returns FALSE (0001ms, 2777ms total)
T29F4 060:508 JLINK_IsHalted() >0x198 JTAG>  returns FALSE (0001ms, 2777ms total)
T29F4 060:511 JLINK_IsHalted() >0x198 JTAG>  returns FALSE (0001ms, 2777ms total)
T29F4 060:514 JLINK_IsHalted() >0x198 JTAG>  returns FALSE (0001ms, 2777ms total)
T29F4 060:517 JLINK_IsHalted() >0x198 JTAG>  returns FALSE (0001ms, 2777ms total)
T29F4 060:520 JLINK_IsHalted() >0x198 JTAG>  returns FALSE (0001ms, 2777ms total)
T29F4 060:523 JLINK_IsHalted() >0x198 JTAG>  returns FALSE (0001ms, 2777ms total)
T29F4 060:526 JLINK_IsHalted() >0x198 JTAG>  returns FALSE (0001ms, 2777ms total)
T29F4 060:529 JLINK_IsHalted() >0x198 JTAG>  returns FALSE (0001ms, 2777ms total)
T29F4 060:532 JLINK_IsHalted() >0x198 JTAG>  returns FALSE (0001ms, 2777ms total)
T29F4 060:535 JLINK_IsHalted() >0x198 JTAG>  returns FALSE (0001ms, 2777ms total)
T29F4 060:538 JLINK_IsHalted() >0x198 JTAG>  returns FALSE (0001ms, 2777ms total)
T29F4 060:541 JLINK_IsHalted() >0x198 JTAG>  returns FALSE (0001ms, 2777ms total)
T29F4 060:544 JLINK_IsHalted() >0x198 JTAG>  returns FALSE (0001ms, 2777ms total)
T29F4 060:547 JLINK_IsHalted() >0x198 JTAG>  returns FALSE (0001ms, 2777ms total)
T29F4 060:550 JLINK_IsHalted() >0x198 JTAG>  returns FALSE (0001ms, 2777ms total)
T29F4 060:553 JLINK_IsHalted() >0x198 JTAG>  returns FALSE (0001ms, 2777ms total)
T29F4 060:556 JLINK_IsHalted() >0x198 JTAG>  returns FALSE (0001ms, 2777ms total)
T29F4 060:559 JLINK_IsHalted() >0x198 JTAG>  returns FALSE (0001ms, 2777ms total)
T29F4 060:568 JLINK_IsHalted() >0x198 JTAG>  returns FALSE (0001ms, 2777ms total)
T29F4 060:571 JLINK_IsHalted() >0x198 JTAG>  returns FALSE (0000ms, 2776ms total)
T29F4 060:574 JLINK_IsHalted() >0x198 JTAG>  returns FALSE (0001ms, 2777ms total)
T29F4 060:577 JLINK_IsHalted() >0x198 JTAG>  returns FALSE (0000ms, 2776ms total)
T29F4 060:580 JLINK_IsHalted() >0x198 JTAG>  returns FALSE (0001ms, 2777ms total)
T29F4 060:584 JLINK_IsHalted() >0x198 JTAG>  returns FALSE (0001ms, 2777ms total)
T29F4 060:588 JLINK_IsHalted() >0x198 JTAG>  returns FALSE (0002ms, 2778ms total)
T29F4 060:592 JLINK_IsHalted() >0x198 JTAG>  returns FALSE (0001ms, 2777ms total)
T29F4 060:597 JLINK_IsHalted() >0x198 JTAG>  returns FALSE (0000ms, 2776ms total)
T29F4 060:599 JLINK_IsHalted() >0x198 JTAG>  returns FALSE (0001ms, 2777ms total)
T29F4 060:602 JLINK_IsHalted() >0x198 JTAG>  returns FALSE (0002ms, 2778ms total)
T29F4 060:606 JLINK_IsHalted() >0x198 JTAG>  returns FALSE (0002ms, 2778ms total)
T29F4 060:609 JLINK_IsHalted() >0x198 JTAG>  returns FALSE (0001ms, 2777ms total)
T29F4 060:612 JLINK_IsHalted() >0x198 JTAG>  returns FALSE (0001ms, 2777ms total)
T29F4 060:615 JLINK_IsHalted() >0x198 JTAG>  returns FALSE (0001ms, 2777ms total)
T29F4 060:618 JLINK_IsHalted() >0x198 JTAG>  returns FALSE (0001ms, 2777ms total)
T29F4 060:621 JLINK_IsHalted() >0x198 JTAG>  returns FALSE (0001ms, 2777ms total)
T29F4 060:624 JLINK_IsHalted() >0x198 JTAG>  returns FALSE (0002ms, 2778ms total)
T29F4 060:627 JLINK_IsHalted() >0x198 JTAG>  returns FALSE (0002ms, 2778ms total)
T29F4 060:631 JLINK_IsHalted() >0x198 JTAG>  returns FALSE (0002ms, 2778ms total)
T29F4 060:634 JLINK_IsHalted() >0x198 JTAG>  returns FALSE (0001ms, 2777ms total)
T29F4 060:637 JLINK_IsHalted() >0x198 JTAG>  returns FALSE (0002ms, 2778ms total)
T29F4 060:640 JLINK_IsHalted() >0x198 JTAG>  returns FALSE (0002ms, 2778ms total)
T29F4 060:643 JLINK_IsHalted() >0x198 JTAG>  returns FALSE (0002ms, 2778ms total)
T29F4 060:646 JLINK_IsHalted() >0x198 JTAG>  returns FALSE (0002ms, 2778ms total)
T29F4 060:649 JLINK_IsHalted() >0x198 JTAG>  returns FALSE (0002ms, 2778ms total)
T29F4 060:652 JLINK_IsHalted() >0x198 JTAG>  returns FALSE (0001ms, 2777ms total)
T29F4 060:655 JLINK_IsHalted() >0x198 JTAG>  returns FALSE (0001ms, 2777ms total)
T29F4 060:658 JLINK_IsHalted() >0x198 JTAG>  returns FALSE (0001ms, 2777ms total)
T29F4 060:661 JLINK_IsHalted() >0x198 JTAG>  returns FALSE (0001ms, 2777ms total)
T29F4 060:664 JLINK_IsHalted() >0x198 JTAG>  returns FALSE (0001ms, 2777ms total)
T29F4 060:667 JLINK_IsHalted() >0x198 JTAG>  returns FALSE (0001ms, 2777ms total)
T29F4 060:670 JLINK_IsHalted() >0x198 JTAG>  returns FALSE (0002ms, 2778ms total)
T29F4 060:674 JLINK_IsHalted() >0x198 JTAG>  returns FALSE (0001ms, 2777ms total)
T29F4 060:679 JLINK_IsHalted() >0x198 JTAG>  returns FALSE (0002ms, 2778ms total)
T29F4 060:683 JLINK_IsHalted() >0x198 JTAG>  returns FALSE (0001ms, 2777ms total)
T29F4 060:686 JLINK_IsHalted() >0x198 JTAG>  returns FALSE (0001ms, 2777ms total)
T29F4 060:689 JLINK_IsHalted() >0x198 JTAG>  returns FALSE (0002ms, 2778ms total)
T29F4 060:692 JLINK_IsHalted() >0x198 JTAG>  returns FALSE (0001ms, 2777ms total)
T29F4 060:695 JLINK_IsHalted() >0x198 JTAG>  returns FALSE (0002ms, 2778ms total)
T29F4 060:699 JLINK_IsHalted() >0x198 JTAG>  returns FALSE (0001ms, 2777ms total)
T29F4 060:702 JLINK_IsHalted() >0x198 JTAG>  returns FALSE (0001ms, 2777ms total)
T29F4 060:705 JLINK_IsHalted() >0x198 JTAG>  returns FALSE (0001ms, 2777ms total)
T29F4 060:709 JLINK_IsHalted() >0x198 JTAG>  returns FALSE (0001ms, 2777ms total)
T29F4 060:712 JLINK_IsHalted() >0x198 JTAG>  returns FALSE (0002ms, 2778ms total)
T29F4 060:716 JLINK_IsHalted() >0x198 JTAG>  returns FALSE (0002ms, 2778ms total)
T29F4 060:720 JLINK_IsHalted() >0x198 JTAG>  returns FALSE (0001ms, 2777ms total)
T29F4 060:723 JLINK_IsHalted() >0x198 JTAG>  returns FALSE (0001ms, 2777ms total)
T29F4 060:726 JLINK_IsHalted() >0x198 JTAG>  returns FALSE (0002ms, 2778ms total)
T29F4 060:730 JLINK_IsHalted() >0x198 JTAG>  returns FALSE (0001ms, 2777ms total)
T29F4 060:733 JLINK_IsHalted() >0x198 JTAG>  returns FALSE (0001ms, 2777ms total)
T29F4 060:736 JLINK_IsHalted() >0x198 JTAG> >0x17A8 JTAG> >0x1F0 JTAG>  returns TRUE (0007ms, 2783ms total)
T29F4 060:744 JLINK_ReadReg(R15 (PC))  returns 0x20000000 (0000ms, 2776ms total)
T29F4 060:744 JLINK_ClrBPEx(BPHandle = 0x00000003)  returns 0x00 (0000ms, 2776ms total)
T29F4 060:744 JLINK_ReadReg(R0)  returns 0x00000000 (0000ms, 2776ms total)
T29F4 060:745 JLINK_WriteReg(R0, 0x00000001)  returns 0x00 (0000ms, 2776ms total)
T29F4 060:745 JLINK_WriteReg(R1, 0x00004000)  returns 0x00 (0000ms, 2776ms total)
T29F4 060:745 JLINK_WriteReg(R2, 0x000000FF)  returns 0x00 (0000ms, 2776ms total)
T29F4 060:745 JLINK_WriteReg(R3, 0x00000000)  returns 0x00 (0000ms, 2776ms total)
T29F4 060:745 JLINK_WriteReg(R4, 0x00000000)  returns 0x00 (0000ms, 2776ms total)
T29F4 060:745 JLINK_WriteReg(R5, 0x00000000)  returns 0x00 (0000ms, 2776ms total)
T29F4 060:745 JLINK_WriteReg(R6, 0x00000000)  returns 0x00 (0000ms, 2776ms total)
T29F4 060:745 JLINK_WriteReg(R7, 0x00000000)  returns 0x00 (0000ms, 2776ms total)
T29F4 060:745 JLINK_WriteReg(R8, 0x00000000)  returns 0x00 (0000ms, 2776ms total)
T29F4 060:745 JLINK_WriteReg(R9, 0x2000017C)  returns 0x00 (0000ms, 2776ms total)
T29F4 060:745 JLINK_WriteReg(R10, 0x00000000)  returns 0x00 (0000ms, 2776ms total)
T29F4 060:745 JLINK_WriteReg(R11, 0x00000000)  returns 0x00 (0000ms, 2776ms total)
T29F4 060:745 JLINK_WriteReg(R12, 0x00000000)  returns 0x00 (0000ms, 2776ms total)
T29F4 060:745 JLINK_WriteReg(R13 (SP), 0x20001000)  returns 0x00 (0000ms, 2776ms total)
T29F4 060:745 JLINK_WriteReg(R14, 0x20000001)  returns 0x00 (0000ms, 2776ms total)
T29F4 060:745 JLINK_WriteReg(R15 (PC), 0x20000082)  returns 0x00 (0000ms, 2776ms total)
T29F4 060:745 JLINK_WriteReg(XPSR, 0x01000000)  returns 0x00 (0000ms, 2776ms total)
T29F4 060:745 JLINK_WriteReg(MSP, 0x20001000)  returns 0x00 (0000ms, 2776ms total)
T29F4 060:745 JLINK_WriteReg(PSP, 0x20001000)  returns 0x00 (0000ms, 2776ms total)
T29F4 060:745 JLINK_WriteReg(CFBP, 0x00000000)  returns 0x00 (0000ms, 2776ms total)
T29F4 060:745 JLINK_SetBPEx(Addr = 0x20000000, Type = 0xFFFFFFF2)  returns 0x00000004 (0000ms, 2776ms total)
T29F4 060:745 JLINK_Go() >0x1F0 JTAG> >0x310 JTAG> >0x218 JTAG> >0x218 JTAG> >0x218 JTAG> >0x218 JTAG> >0x218 JTAG> >0x218 JTAG> >0x240 JTAG> >0x240 JTAG> (0014ms, 2790ms total)
T29F4 060:759 JLINK_IsHalted() >0x198 JTAG> >0x17A8 JTAG> >0x1F0 JTAG>  returns TRUE (0006ms, 2796ms total)
T29F4 060:765 JLINK_ReadReg(R15 (PC))  returns 0x20000000 (0000ms, 2790ms total)
T29F4 060:765 JLINK_ClrBPEx(BPHandle = 0x00000004)  returns 0x00 (0000ms, 2790ms total)
T29F4 060:765 JLINK_ReadReg(R0)  returns 0x00000000 (0000ms, 2790ms total)
T29F4 060:823 JLINK_WriteMem(0x20000000, 0x0180 Bytes, ...) - Data: 00 BE 0A E0 0D 78 2D 06 68 40 08 24 40 00 00 D3 ... >0x13C0 JTAG>  returns 0x180 (0005ms, 2795ms total)
T29F4 060:828 JLINK_WriteReg(R0, 0x08000000)  returns 0x00 (0000ms, 2795ms total)
T29F4 060:828 JLINK_WriteReg(R1, 0x0A037A00)  returns 0x00 (0000ms, 2795ms total)
T29F4 060:828 JLINK_WriteReg(R2, 0x00000002)  returns 0x00 (0000ms, 2795ms total)
T29F4 060:828 JLINK_WriteReg(R3, 0x00000000)  returns 0x00 (0000ms, 2795ms total)
T29F4 060:828 JLINK_WriteReg(R4, 0x00000000)  returns 0x00 (0000ms, 2795ms total)
T29F4 060:828 JLINK_WriteReg(R5, 0x00000000)  returns 0x00 (0000ms, 2795ms total)
T29F4 060:828 JLINK_WriteReg(R6, 0x00000000)  returns 0x00 (0000ms, 2795ms total)
T29F4 060:828 JLINK_WriteReg(R7, 0x00000000)  returns 0x00 (0000ms, 2795ms total)
T29F4 060:828 JLINK_WriteReg(R8, 0x00000000)  returns 0x00 (0000ms, 2795ms total)
T29F4 060:828 JLINK_WriteReg(R9, 0x2000017C)  returns 0x00 (0000ms, 2795ms total)
T29F4 060:828 JLINK_WriteReg(R10, 0x00000000)  returns 0x00 (0000ms, 2795ms total)
T29F4 060:828 JLINK_WriteReg(R11, 0x00000000)  returns 0x00 (0000ms, 2795ms total)
T29F4 060:828 JLINK_WriteReg(R12, 0x00000000)  returns 0x00 (0000ms, 2795ms total)
T29F4 060:828 JLINK_WriteReg(R13 (SP), 0x20001000)  returns 0x00 (0000ms, 2795ms total)
T29F4 060:828 JLINK_WriteReg(R14, 0x20000001)  returns 0x00 (0000ms, 2795ms total)
T29F4 060:828 JLINK_WriteReg(R15 (PC), 0x20000054)  returns 0x00 (0000ms, 2795ms total)
T29F4 060:828 JLINK_WriteReg(XPSR, 0x01000000)  returns 0x00 (0000ms, 2795ms total)
T29F4 060:828 JLINK_WriteReg(MSP, 0x20001000)  returns 0x00 (0000ms, 2795ms total)
T29F4 060:828 JLINK_WriteReg(PSP, 0x20001000)  returns 0x00 (0000ms, 2795ms total)
T29F4 060:828 JLINK_WriteReg(CFBP, 0x00000000)  returns 0x00 (0000ms, 2795ms total)
T29F4 060:828 JLINK_SetBPEx(Addr = 0x20000000, Type = 0xFFFFFFF2) >0x1F0 JTAG>  returns 0x00000005 (0002ms, 2797ms total)
T29F4 060:830 JLINK_Go() >0x1F0 JTAG> >0x1F0 JTAG> >0x310 JTAG> >0x218 JTAG> >0x218 JTAG> >0x218 JTAG> >0x218 JTAG> >0x240 JTAG> >0x240 JTAG> (0013ms, 2810ms total)
T29F4 060:843 JLINK_IsHalted() >0x198 JTAG> >0x17A8 JTAG> >0x1F0 JTAG>  returns TRUE (0008ms, 2818ms total)
T29F4 060:851 JLINK_ReadReg(R15 (PC))  returns 0x20000000 (0001ms, 2811ms total)
T29F4 060:852 JLINK_ClrBPEx(BPHandle = 0x00000005)  returns 0x00 (0000ms, 2811ms total)
T29F4 060:852 JLINK_ReadReg(R0)  returns 0x00000000 (0000ms, 2811ms total)
T29F4 060:852 JLINK_WriteMem(0x20000180, 0x0280 Bytes, ...) - Data: B8 04 00 20 9D 01 00 08 1B 15 00 08 FB 13 00 08 ... >0x1FC0 JTAG>  returns 0x280 (0005ms, 2816ms total)
T29F4 060:858 JLINK_WriteMem(0x20000400, 0x0180 Bytes, ...) - Data: 19 46 70 47 06 4C 07 4D 06 E0 E0 68 40 F0 01 03 ... >0x13C0 JTAG>  returns 0x180 (0004ms, 2821ms total)
T29F4 060:862 JLINK_WriteReg(R0, 0x08000000)  returns 0x00 (0000ms, 2821ms total)
T29F4 060:862 JLINK_WriteReg(R1, 0x00000400)  returns 0x00 (0000ms, 2821ms total)
T29F4 060:862 JLINK_WriteReg(R2, 0x20000180)  returns 0x00 (0000ms, 2821ms total)
T29F4 060:862 JLINK_WriteReg(R3, 0x00000000)  returns 0x00 (0000ms, 2821ms total)
T29F4 060:862 JLINK_WriteReg(R4, 0x00000000)  returns 0x00 (0000ms, 2821ms total)
T29F4 060:862 JLINK_WriteReg(R5, 0x00000000)  returns 0x00 (0000ms, 2821ms total)
T29F4 060:862 JLINK_WriteReg(R6, 0x00000000)  returns 0x00 (0000ms, 2821ms total)
T29F4 060:862 JLINK_WriteReg(R7, 0x00000000)  returns 0x00 (0000ms, 2821ms total)
T29F4 060:862 JLINK_WriteReg(R8, 0x00000000)  returns 0x00 (0000ms, 2821ms total)
T29F4 060:862 JLINK_WriteReg(R9, 0x2000017C)  returns 0x00 (0000ms, 2821ms total)
T29F4 060:862 JLINK_WriteReg(R10, 0x00000000)  returns 0x00 (0000ms, 2821ms total)
T29F4 060:862 JLINK_WriteReg(R11, 0x00000000)  returns 0x00 (0000ms, 2821ms total)
T29F4 060:862 JLINK_WriteReg(R12, 0x00000000)  returns 0x00 (0000ms, 2821ms total)
T29F4 060:862 JLINK_WriteReg(R13 (SP), 0x20001000)  returns 0x00 (0000ms, 2821ms total)
T29F4 060:862 JLINK_WriteReg(R14, 0x20000001)  returns 0x00 (0000ms, 2821ms total)
T29F4 060:862 JLINK_WriteReg(R15 (PC), 0x20000108)  returns 0x00 (0000ms, 2821ms total)
T29F4 060:862 JLINK_WriteReg(XPSR, 0x01000000)  returns 0x00 (0000ms, 2821ms total)
T29F4 060:862 JLINK_WriteReg(MSP, 0x20001000)  returns 0x00 (0000ms, 2821ms total)
T29F4 060:862 JLINK_WriteReg(PSP, 0x20001000)  returns 0x00 (0000ms, 2821ms total)
T29F4 060:862 JLINK_WriteReg(CFBP, 0x00000000)  returns 0x00 (0000ms, 2821ms total)
T29F4 060:862 JLINK_SetBPEx(Addr = 0x20000000, Type = 0xFFFFFFF2)  returns 0x00000006 (0000ms, 2821ms total)
T29F4 060:862 JLINK_Go() >0x1F0 JTAG> >0x310 JTAG> >0x218 JTAG> >0x218 JTAG> >0x218 JTAG> >0x218 JTAG> >0x240 JTAG> >0x240 JTAG> (0013ms, 2834ms total)
T29F4 060:875 JLINK_IsHalted() >0x198 JTAG>  returns FALSE (0001ms, 2835ms total)
T29F4 060:881 JLINK_IsHalted() >0x198 JTAG> >0x17A8 JTAG> >0x1F0 JTAG>  returns TRUE (0008ms, 2842ms total)
T29F4 060:889 JLINK_ReadReg(R15 (PC))  returns 0x20000000 (0000ms, 2834ms total)
T29F4 060:889 JLINK_ClrBPEx(BPHandle = 0x00000006)  returns 0x00 (0000ms, 2834ms total)
T29F4 060:889 JLINK_ReadReg(R0)  returns 0x00000000 (0000ms, 2834ms total)
T29F4 060:890 JLINK_WriteMem(0x20000180, 0x0280 Bytes, ...) - Data: 51 51 00 68 03 EB 04 11 42 58 42 F0 01 02 42 50 ... >0x1FC0 JTAG>  returns 0x280 (0006ms, 2840ms total)
T29F4 060:896 JLINK_WriteMem(0x20000400, 0x0180 Bytes, ...) - Data: 81 60 B8 07 03 D5 28 46 00 F0 FB F9 0C E0 78 07 ... >0x13C0 JTAG>  returns 0x180 (0004ms, 2844ms total)
T29F4 060:900 JLINK_WriteReg(R0, 0x08000400)  returns 0x00 (0000ms, 2844ms total)
T29F4 060:900 JLINK_WriteReg(R1, 0x00000400)  returns 0x00 (0000ms, 2844ms total)
T29F4 060:900 JLINK_WriteReg(R2, 0x20000180)  returns 0x00 (0000ms, 2844ms total)
T29F4 060:900 JLINK_WriteReg(R3, 0x00000000)  returns 0x00 (0000ms, 2844ms total)
T29F4 060:900 JLINK_WriteReg(R4, 0x00000000)  returns 0x00 (0000ms, 2844ms total)
T29F4 060:900 JLINK_WriteReg(R5, 0x00000000)  returns 0x00 (0000ms, 2844ms total)
T29F4 060:900 JLINK_WriteReg(R6, 0x00000000)  returns 0x00 (0000ms, 2844ms total)
T29F4 060:900 JLINK_WriteReg(R7, 0x00000000)  returns 0x00 (0000ms, 2844ms total)
T29F4 060:900 JLINK_WriteReg(R8, 0x00000000)  returns 0x00 (0000ms, 2844ms total)
T29F4 060:900 JLINK_WriteReg(R9, 0x2000017C)  returns 0x00 (0000ms, 2844ms total)
T29F4 060:900 JLINK_WriteReg(R10, 0x00000000)  returns 0x00 (0000ms, 2844ms total)
T29F4 060:900 JLINK_WriteReg(R11, 0x00000000)  returns 0x00 (0000ms, 2844ms total)
T29F4 060:900 JLINK_WriteReg(R12, 0x00000000)  returns 0x00 (0000ms, 2844ms total)
T29F4 060:900 JLINK_WriteReg(R13 (SP), 0x20001000)  returns 0x00 (0000ms, 2844ms total)
T29F4 060:900 JLINK_WriteReg(R14, 0x20000001)  returns 0x00 (0000ms, 2844ms total)
T29F4 060:900 JLINK_WriteReg(R15 (PC), 0x20000108)  returns 0x00 (0000ms, 2844ms total)
T29F4 060:900 JLINK_WriteReg(XPSR, 0x01000000)  returns 0x00 (0000ms, 2844ms total)
T29F4 060:900 JLINK_WriteReg(MSP, 0x20001000)  returns 0x00 (0000ms, 2844ms total)
T29F4 060:900 JLINK_WriteReg(PSP, 0x20001000)  returns 0x00 (0000ms, 2844ms total)
T29F4 060:900 JLINK_WriteReg(CFBP, 0x00000000)  returns 0x00 (0000ms, 2844ms total)
T29F4 060:900 JLINK_SetBPEx(Addr = 0x20000000, Type = 0xFFFFFFF2)  returns 0x00000007 (0000ms, 2844ms total)
T29F4 060:900 JLINK_Go() >0x1F0 JTAG> >0x310 JTAG> >0x218 JTAG> >0x218 JTAG> >0x218 JTAG> >0x218 JTAG> >0x218 JTAG> >0x240 JTAG> >0x240 JTAG> (0014ms, 2858ms total)
T29F4 060:915 JLINK_IsHalted() >0x198 JTAG>  returns FALSE (0001ms, 2860ms total)
T29F4 060:924 JLINK_IsHalted() >0x198 JTAG> >0x17A8 JTAG> >0x1F0 JTAG>  returns TRUE (0008ms, 2867ms total)
T29F4 060:932 JLINK_ReadReg(R15 (PC))  returns 0x20000000 (0000ms, 2859ms total)
T29F4 060:932 JLINK_ClrBPEx(BPHandle = 0x00000007)  returns 0x00 (0000ms, 2859ms total)
T29F4 060:932 JLINK_ReadReg(R0)  returns 0x00000000 (0000ms, 2859ms total)
T29F4 060:932 JLINK_WriteMem(0x20000180, 0x0280 Bytes, ...) - Data: 16 D1 0A E0 50 28 0E D0 60 28 11 D1 0E E0 44 F0 ... >0x1FC0 JTAG>  returns 0x280 (0006ms, 2865ms total)
T29F4 060:938 JLINK_WriteMem(0x20000400, 0x0180 Bytes, ...) - Data: 70 47 70 47 70 47 70 47 70 47 70 47 70 47 00 00 ... >0x13C0 JTAG>  returns 0x180 (0005ms, 2870ms total)
T29F4 060:944 JLINK_WriteReg(R0, 0x08000800)  returns 0x00 (0001ms, 2871ms total)
T29F4 060:945 JLINK_WriteReg(R1, 0x00000400)  returns 0x00 (0000ms, 2871ms total)
T29F4 060:945 JLINK_WriteReg(R2, 0x20000180)  returns 0x00 (0000ms, 2871ms total)
T29F4 060:945 JLINK_WriteReg(R3, 0x00000000)  returns 0x00 (0000ms, 2871ms total)
T29F4 060:945 JLINK_WriteReg(R4, 0x00000000)  returns 0x00 (0000ms, 2871ms total)
T29F4 060:945 JLINK_WriteReg(R5, 0x00000000)  returns 0x00 (0000ms, 2871ms total)
T29F4 060:945 JLINK_WriteReg(R6, 0x00000000)  returns 0x00 (0000ms, 2871ms total)
T29F4 060:945 JLINK_WriteReg(R7, 0x00000000)  returns 0x00 (0000ms, 2871ms total)
T29F4 060:945 JLINK_WriteReg(R8, 0x00000000)  returns 0x00 (0000ms, 2871ms total)
T29F4 060:945 JLINK_WriteReg(R9, 0x2000017C)  returns 0x00 (0000ms, 2871ms total)
T29F4 060:945 JLINK_WriteReg(R10, 0x00000000)  returns 0x00 (0000ms, 2871ms total)
T29F4 060:945 JLINK_WriteReg(R11, 0x00000000)  returns 0x00 (0000ms, 2871ms total)
T29F4 060:945 JLINK_WriteReg(R12, 0x00000000)  returns 0x00 (0000ms, 2871ms total)
T29F4 060:945 JLINK_WriteReg(R13 (SP), 0x20001000)  returns 0x00 (0000ms, 2871ms total)
T29F4 060:945 JLINK_WriteReg(R14, 0x20000001)  returns 0x00 (0000ms, 2871ms total)
T29F4 060:945 JLINK_WriteReg(R15 (PC), 0x20000108)  returns 0x00 (0000ms, 2871ms total)
T29F4 060:945 JLINK_WriteReg(XPSR, 0x01000000)  returns 0x00 (0000ms, 2871ms total)
T29F4 060:945 JLINK_WriteReg(MSP, 0x20001000)  returns 0x00 (0000ms, 2871ms total)
T29F4 060:945 JLINK_WriteReg(PSP, 0x20001000)  returns 0x00 (0000ms, 2871ms total)
T29F4 060:945 JLINK_WriteReg(CFBP, 0x00000000)  returns 0x00 (0000ms, 2871ms total)
T29F4 060:945 JLINK_SetBPEx(Addr = 0x20000000, Type = 0xFFFFFFF2)  returns 0x00000008 (0000ms, 2871ms total)
T29F4 060:945 JLINK_Go() >0x1F0 JTAG> >0x310 JTAG> >0x218 JTAG> >0x218 JTAG> >0x218 JTAG> >0x218 JTAG> >0x218 JTAG> >0x240 JTAG> >0x240 JTAG> (0015ms, 2886ms total)
T29F4 060:960 JLINK_IsHalted() >0x198 JTAG>  returns FALSE (0001ms, 2887ms total)
T29F4 060:963 JLINK_IsHalted() >0x198 JTAG> >0x17A8 JTAG> >0x1F0 JTAG>  returns TRUE (0007ms, 2893ms total)
T29F4 060:970 JLINK_ReadReg(R15 (PC))  returns 0x20000000 (0000ms, 2886ms total)
T29F4 060:970 JLINK_ClrBPEx(BPHandle = 0x00000008)  returns 0x00 (0000ms, 2886ms total)
T29F4 060:970 JLINK_ReadReg(R0)  returns 0x00000000 (0000ms, 2886ms total)
T29F4 060:971 JLINK_WriteMem(0x20000180, 0x0280 Bytes, ...) - Data: B6 02 00 D5 1C 43 2C 60 52 1C 10 2A FF F4 4E AF ... >0x1FC0 JTAG>  returns 0x280 (0006ms, 2892ms total)
T29F4 060:977 JLINK_WriteMem(0x20000400, 0x0180 Bytes, ...) - Data: 60 40 40 EA C1 00 20 60 00 F0 16 F8 21 68 08 4A ... >0x13C0 JTAG>  returns 0x180 (0004ms, 2896ms total)
T29F4 060:981 JLINK_WriteReg(R0, 0x08000C00)  returns 0x00 (0000ms, 2896ms total)
T29F4 060:981 JLINK_WriteReg(R1, 0x00000400)  returns 0x00 (0000ms, 2896ms total)
T29F4 060:981 JLINK_WriteReg(R2, 0x20000180)  returns 0x00 (0000ms, 2896ms total)
T29F4 060:981 JLINK_WriteReg(R3, 0x00000000)  returns 0x00 (0000ms, 2896ms total)
T29F4 060:981 JLINK_WriteReg(R4, 0x00000000)  returns 0x00 (0000ms, 2896ms total)
T29F4 060:981 JLINK_WriteReg(R5, 0x00000000)  returns 0x00 (0000ms, 2896ms total)
T29F4 060:981 JLINK_WriteReg(R6, 0x00000000)  returns 0x00 (0000ms, 2896ms total)
T29F4 060:981 JLINK_WriteReg(R7, 0x00000000)  returns 0x00 (0000ms, 2896ms total)
T29F4 060:981 JLINK_WriteReg(R8, 0x00000000)  returns 0x00 (0000ms, 2896ms total)
T29F4 060:981 JLINK_WriteReg(R9, 0x2000017C)  returns 0x00 (0000ms, 2896ms total)
T29F4 060:981 JLINK_WriteReg(R10, 0x00000000)  returns 0x00 (0000ms, 2896ms total)
T29F4 060:981 JLINK_WriteReg(R11, 0x00000000)  returns 0x00 (0000ms, 2896ms total)
T29F4 060:981 JLINK_WriteReg(R12, 0x00000000)  returns 0x00 (0000ms, 2896ms total)
T29F4 060:981 JLINK_WriteReg(R13 (SP), 0x20001000)  returns 0x00 (0000ms, 2896ms total)
T29F4 060:981 JLINK_WriteReg(R14, 0x20000001)  returns 0x00 (0000ms, 2896ms total)
T29F4 060:981 JLINK_WriteReg(R15 (PC), 0x20000108)  returns 0x00 (0000ms, 2896ms total)
T29F4 060:981 JLINK_WriteReg(XPSR, 0x01000000)  returns 0x00 (0000ms, 2896ms total)
T29F4 060:981 JLINK_WriteReg(MSP, 0x20001000)  returns 0x00 (0000ms, 2896ms total)
T29F4 060:981 JLINK_WriteReg(PSP, 0x20001000)  returns 0x00 (0000ms, 2896ms total)
T29F4 060:981 JLINK_WriteReg(CFBP, 0x00000000)  returns 0x00 (0000ms, 2896ms total)
T29F4 060:981 JLINK_SetBPEx(Addr = 0x20000000, Type = 0xFFFFFFF2)  returns 0x00000009 (0000ms, 2896ms total)
T29F4 060:981 JLINK_Go() >0x1F0 JTAG> >0x310 JTAG> >0x218 JTAG> >0x218 JTAG> >0x218 JTAG> >0x218 JTAG> >0x218 JTAG> >0x240 JTAG> >0x240 JTAG> (0012ms, 2908ms total)
T29F4 060:993 JLINK_IsHalted() >0x198 JTAG>  returns FALSE (0001ms, 2909ms total)
T29F4 060:998 JLINK_IsHalted() >0x198 JTAG> >0x17A8 JTAG> >0x1F0 JTAG>  returns TRUE (0006ms, 2914ms total)
T29F4 061:004 JLINK_ReadReg(R15 (PC))  returns 0x20000000 (0000ms, 2908ms total)
T29F4 061:004 JLINK_ClrBPEx(BPHandle = 0x00000009)  returns 0x00 (0000ms, 2908ms total)
T29F4 061:004 JLINK_ReadReg(R0)  returns 0x00000000 (0000ms, 2908ms total)
T29F4 061:005 JLINK_WriteMem(0x20000180, 0x0280 Bytes, ...) - Data: 01 20 C8 F8 00 00 FF F7 21 FE 06 46 05 E0 02 E1 ... >0x1FC0 JTAG>  returns 0x280 (0006ms, 2914ms total)
T29F4 061:011 JLINK_WriteMem(0x20000400, 0x0180 Bytes, ...) - Data: 0D 68 2C 43 5C 60 03 68 9C 68 24 F0 80 04 9C 60 ... >0x13C0 JTAG>  returns 0x180 (0004ms, 2918ms total)
T29F4 061:015 JLINK_WriteReg(R0, 0x08001000)  returns 0x00 (0000ms, 2918ms total)
T29F4 061:015 JLINK_WriteReg(R1, 0x00000400)  returns 0x00 (0000ms, 2918ms total)
T29F4 061:015 JLINK_WriteReg(R2, 0x20000180)  returns 0x00 (0000ms, 2918ms total)
T29F4 061:015 JLINK_WriteReg(R3, 0x00000000)  returns 0x00 (0000ms, 2918ms total)
T29F4 061:015 JLINK_WriteReg(R4, 0x00000000)  returns 0x00 (0000ms, 2918ms total)
T29F4 061:015 JLINK_WriteReg(R5, 0x00000000)  returns 0x00 (0000ms, 2918ms total)
T29F4 061:015 JLINK_WriteReg(R6, 0x00000000)  returns 0x00 (0000ms, 2918ms total)
T29F4 061:015 JLINK_WriteReg(R7, 0x00000000)  returns 0x00 (0000ms, 2918ms total)
T29F4 061:015 JLINK_WriteReg(R8, 0x00000000)  returns 0x00 (0000ms, 2918ms total)
T29F4 061:015 JLINK_WriteReg(R9, 0x2000017C)  returns 0x00 (0000ms, 2918ms total)
T29F4 061:015 JLINK_WriteReg(R10, 0x00000000)  returns 0x00 (0000ms, 2918ms total)
T29F4 061:016 JLINK_WriteReg(R11, 0x00000000)  returns 0x00 (0000ms, 2919ms total)
T29F4 061:016 JLINK_WriteReg(R12, 0x00000000)  returns 0x00 (0000ms, 2919ms total)
T29F4 061:016 JLINK_WriteReg(R13 (SP), 0x20001000)  returns 0x00 (0000ms, 2919ms total)
T29F4 061:016 JLINK_WriteReg(R14, 0x20000001)  returns 0x00 (0000ms, 2919ms total)
T29F4 061:016 JLINK_WriteReg(R15 (PC), 0x20000108)  returns 0x00 (0000ms, 2919ms total)
T29F4 061:016 JLINK_WriteReg(XPSR, 0x01000000)  returns 0x00 (0000ms, 2919ms total)
T29F4 061:016 JLINK_WriteReg(MSP, 0x20001000)  returns 0x00 (0000ms, 2919ms total)
T29F4 061:016 JLINK_WriteReg(PSP, 0x20001000)  returns 0x00 (0000ms, 2919ms total)
T29F4 061:016 JLINK_WriteReg(CFBP, 0x00000000)  returns 0x00 (0000ms, 2919ms total)
T29F4 061:016 JLINK_SetBPEx(Addr = 0x20000000, Type = 0xFFFFFFF2)  returns 0x0000000A (0000ms, 2919ms total)
T29F4 061:016 JLINK_Go() >0x1F0 JTAG> >0x310 JTAG> >0x218 JTAG> >0x218 JTAG> >0x218 JTAG> >0x218 JTAG> >0x218 JTAG> >0x240 JTAG> >0x240 JTAG> (0012ms, 2931ms total)
T29F4 061:028 JLINK_IsHalted() >0x198 JTAG>  returns FALSE (0001ms, 2932ms total)
T29F4 061:031 JLINK_IsHalted() >0x198 JTAG>  returns FALSE (0001ms, 2932ms total)
T29F4 061:035 JLINK_IsHalted() >0x198 JTAG> >0x17A8 JTAG> >0x1F0 JTAG>  returns TRUE (0006ms, 2937ms total)
T29F4 061:041 JLINK_ReadReg(R15 (PC))  returns 0x20000000 (0000ms, 2931ms total)
T29F4 061:041 JLINK_ClrBPEx(BPHandle = 0x0000000A)  returns 0x00 (0000ms, 2931ms total)
T29F4 061:041 JLINK_ReadReg(R0)  returns 0x00000000 (0000ms, 2931ms total)
T29F4 061:041 JLINK_WriteMem(0x20000180, 0x0280 Bytes, ...) - Data: 0E 49 01 60 02 21 41 60 00 21 4F F4 50 22 81 60 ... >0x1FC0 JTAG>  returns 0x280 (0006ms, 2937ms total)
T29F4 061:047 JLINK_WriteMem(0x20000400, 0x0180 Bytes, ...) - Data: B0 42 15 D0 B8 42 13 D0 A0 42 11 D0 16 4D A8 42 ... >0x13C0 JTAG>  returns 0x180 (0005ms, 2942ms total)
T29F4 061:052 JLINK_WriteReg(R0, 0x08001400)  returns 0x00 (0000ms, 2942ms total)
T29F4 061:052 JLINK_WriteReg(R1, 0x00000400)  returns 0x00 (0000ms, 2942ms total)
T29F4 061:052 JLINK_WriteReg(R2, 0x20000180)  returns 0x00 (0000ms, 2942ms total)
T29F4 061:052 JLINK_WriteReg(R3, 0x00000000)  returns 0x00 (0000ms, 2942ms total)
T29F4 061:052 JLINK_WriteReg(R4, 0x00000000)  returns 0x00 (0000ms, 2942ms total)
T29F4 061:052 JLINK_WriteReg(R5, 0x00000000)  returns 0x00 (0000ms, 2942ms total)
T29F4 061:052 JLINK_WriteReg(R6, 0x00000000)  returns 0x00 (0000ms, 2942ms total)
T29F4 061:052 JLINK_WriteReg(R7, 0x00000000)  returns 0x00 (0000ms, 2942ms total)
T29F4 061:052 JLINK_WriteReg(R8, 0x00000000)  returns 0x00 (0000ms, 2942ms total)
T29F4 061:052 JLINK_WriteReg(R9, 0x2000017C)  returns 0x00 (0000ms, 2942ms total)
T29F4 061:052 JLINK_WriteReg(R10, 0x00000000)  returns 0x00 (0000ms, 2942ms total)
T29F4 061:052 JLINK_WriteReg(R11, 0x00000000)  returns 0x00 (0000ms, 2942ms total)
T29F4 061:052 JLINK_WriteReg(R12, 0x00000000)  returns 0x00 (0000ms, 2942ms total)
T29F4 061:052 JLINK_WriteReg(R13 (SP), 0x20001000)  returns 0x00 (0000ms, 2942ms total)
T29F4 061:052 JLINK_WriteReg(R14, 0x20000001)  returns 0x00 (0000ms, 2942ms total)
T29F4 061:052 JLINK_WriteReg(R15 (PC), 0x20000108)  returns 0x00 (0000ms, 2942ms total)
T29F4 061:052 JLINK_WriteReg(XPSR, 0x01000000)  returns 0x00 (0000ms, 2942ms total)
T29F4 061:052 JLINK_WriteReg(MSP, 0x20001000)  returns 0x00 (0000ms, 2942ms total)
T29F4 061:052 JLINK_WriteReg(PSP, 0x20001000)  returns 0x00 (0000ms, 2942ms total)
T29F4 061:052 JLINK_WriteReg(CFBP, 0x00000000)  returns 0x00 (0000ms, 2942ms total)
T29F4 061:052 JLINK_SetBPEx(Addr = 0x20000000, Type = 0xFFFFFFF2)  returns 0x0000000B (0000ms, 2942ms total)
T29F4 061:052 JLINK_Go() >0x1F0 JTAG> >0x310 JTAG> >0x218 JTAG> >0x218 JTAG> >0x218 JTAG> >0x218 JTAG> >0x218 JTAG> >0x240 JTAG> >0x240 JTAG> (0011ms, 2953ms total)
T29F4 061:064 JLINK_IsHalted() >0x198 JTAG>  returns FALSE (0001ms, 2954ms total)
T29F4 061:067 JLINK_IsHalted() >0x198 JTAG> >0x17A8 JTAG> >0x1F0 JTAG>  returns TRUE (0007ms, 2960ms total)
T29F4 061:074 JLINK_ReadReg(R15 (PC))  returns 0x20000000 (0000ms, 2953ms total)
T29F4 061:074 JLINK_ClrBPEx(BPHandle = 0x0000000B)  returns 0x00 (0000ms, 2953ms total)
T29F4 061:074 JLINK_ReadReg(R0)  returns 0x00000000 (0000ms, 2953ms total)
T29F4 061:075 JLINK_WriteMem(0x20000180, 0x0280 Bytes, ...) - Data: 07 09 0B 0D 0F 11 13 00 51 20 0C E0 53 20 0A E0 ... >0x1FC0 JTAG>  returns 0x280 (0006ms, 2959ms total)
T29F4 061:081 JLINK_WriteMem(0x20000400, 0x0180 Bytes, ...) - Data: FF FF FF FF FF FF FF FF FF FF FF FF FF FF FF FF ... >0x13C0 JTAG>  returns 0x180 (0004ms, 2963ms total)
T29F4 061:085 JLINK_WriteReg(R0, 0x08001800)  returns 0x00 (0000ms, 2963ms total)
T29F4 061:085 JLINK_WriteReg(R1, 0x00000080)  returns 0x00 (0000ms, 2963ms total)
T29F4 061:085 JLINK_WriteReg(R2, 0x20000180)  returns 0x00 (0000ms, 2963ms total)
T29F4 061:085 JLINK_WriteReg(R3, 0x00000000)  returns 0x00 (0000ms, 2963ms total)
T29F4 061:085 JLINK_WriteReg(R4, 0x00000000)  returns 0x00 (0000ms, 2963ms total)
T29F4 061:085 JLINK_WriteReg(R5, 0x00000000)  returns 0x00 (0000ms, 2963ms total)
T29F4 061:085 JLINK_WriteReg(R6, 0x00000000)  returns 0x00 (0000ms, 2963ms total)
T29F4 061:085 JLINK_WriteReg(R7, 0x00000000)  returns 0x00 (0000ms, 2963ms total)
T29F4 061:085 JLINK_WriteReg(R8, 0x00000000)  returns 0x00 (0000ms, 2963ms total)
T29F4 061:085 JLINK_WriteReg(R9, 0x2000017C)  returns 0x00 (0000ms, 2963ms total)
T29F4 061:085 JLINK_WriteReg(R10, 0x00000000)  returns 0x00 (0000ms, 2963ms total)
T29F4 061:085 JLINK_WriteReg(R11, 0x00000000)  returns 0x00 (0000ms, 2963ms total)
T29F4 061:085 JLINK_WriteReg(R12, 0x00000000)  returns 0x00 (0000ms, 2963ms total)
T29F4 061:085 JLINK_WriteReg(R13 (SP), 0x20001000)  returns 0x00 (0000ms, 2963ms total)
T29F4 061:085 JLINK_WriteReg(R14, 0x20000001)  returns 0x00 (0000ms, 2963ms total)
T29F4 061:085 JLINK_WriteReg(R15 (PC), 0x20000108)  returns 0x00 (0000ms, 2963ms total)
T29F4 061:086 JLINK_WriteReg(XPSR, 0x01000000)  returns 0x00 (0000ms, 2964ms total)
T29F4 061:086 JLINK_WriteReg(MSP, 0x20001000)  returns 0x00 (0000ms, 2964ms total)
T29F4 061:086 JLINK_WriteReg(PSP, 0x20001000)  returns 0x00 (0000ms, 2964ms total)
T29F4 061:086 JLINK_WriteReg(CFBP, 0x00000000)  returns 0x00 (0000ms, 2964ms total)
T29F4 061:086 JLINK_SetBPEx(Addr = 0x20000000, Type = 0xFFFFFFF2)  returns 0x0000000C (0000ms, 2964ms total)
T29F4 061:086 JLINK_Go() >0x1F0 JTAG> >0x310 JTAG> >0x218 JTAG> >0x218 JTAG> >0x218 JTAG> >0x218 JTAG> >0x218 JTAG> >0x240 JTAG> >0x240 JTAG> (0011ms, 2975ms total)
T29F4 061:097 JLINK_IsHalted() >0x198 JTAG> >0x17A8 JTAG> >0x1F0 JTAG>  returns TRUE (0007ms, 2982ms total)
T29F4 061:104 JLINK_ReadReg(R15 (PC))  returns 0x20000000 (0000ms, 2975ms total)
T29F4 061:104 JLINK_ClrBPEx(BPHandle = 0x0000000C)  returns 0x00 (0000ms, 2975ms total)
T29F4 061:104 JLINK_ReadReg(R0)  returns 0x00000000 (0000ms, 2975ms total)
T29F4 061:104 JLINK_WriteReg(R0, 0x00000002)  returns 0x00 (0000ms, 2975ms total)
T29F4 061:104 JLINK_WriteReg(R1, 0x00000080)  returns 0x00 (0000ms, 2975ms total)
T29F4 061:104 JLINK_WriteReg(R2, 0x20000180)  returns 0x00 (0000ms, 2975ms total)
T29F4 061:104 JLINK_WriteReg(R3, 0x00000000)  returns 0x00 (0000ms, 2975ms total)
T29F4 061:104 JLINK_WriteReg(R4, 0x00000000)  returns 0x00 (0000ms, 2975ms total)
T29F4 061:104 JLINK_WriteReg(R5, 0x00000000)  returns 0x00 (0000ms, 2975ms total)
T29F4 061:104 JLINK_WriteReg(R6, 0x00000000)  returns 0x00 (0000ms, 2975ms total)
T29F4 061:104 JLINK_WriteReg(R7, 0x00000000)  returns 0x00 (0000ms, 2975ms total)
T29F4 061:104 JLINK_WriteReg(R8, 0x00000000)  returns 0x00 (0000ms, 2975ms total)
T29F4 061:104 JLINK_WriteReg(R9, 0x2000017C)  returns 0x00 (0000ms, 2975ms total)
T29F4 061:104 JLINK_WriteReg(R10, 0x00000000)  returns 0x00 (0000ms, 2975ms total)
T29F4 061:104 JLINK_WriteReg(R11, 0x00000000)  returns 0x00 (0000ms, 2975ms total)
T29F4 061:104 JLINK_WriteReg(R12, 0x00000000)  returns 0x00 (0000ms, 2975ms total)
T29F4 061:104 JLINK_WriteReg(R13 (SP), 0x20001000)  returns 0x00 (0000ms, 2975ms total)
T29F4 061:104 JLINK_WriteReg(R14, 0x20000001)  returns 0x00 (0000ms, 2975ms total)
T29F4 061:104 JLINK_WriteReg(R15 (PC), 0x20000082)  returns 0x00 (0000ms, 2975ms total)
T29F4 061:104 JLINK_WriteReg(XPSR, 0x01000000)  returns 0x00 (0000ms, 2975ms total)
T29F4 061:104 JLINK_WriteReg(MSP, 0x20001000)  returns 0x00 (0000ms, 2975ms total)
T29F4 061:104 JLINK_WriteReg(PSP, 0x20001000)  returns 0x00 (0000ms, 2975ms total)
T29F4 061:104 JLINK_WriteReg(CFBP, 0x00000000)  returns 0x00 (0000ms, 2975ms total)
T29F4 061:104 JLINK_SetBPEx(Addr = 0x20000000, Type = 0xFFFFFFF2)  returns 0x0000000D (0000ms, 2975ms total)
T29F4 061:104 JLINK_Go() >0x1F0 JTAG> >0x310 JTAG> >0x218 JTAG> >0x218 JTAG> >0x218 JTAG> >0x218 JTAG> >0x218 JTAG> >0x240 JTAG> >0x240 JTAG> (0013ms, 2988ms total)
